!Keysight Technologies N9915A: A.08.18
!Date: Tuesday, 30 July 2019 13:45:48
!TimeZone: (GMT+08:00) Perth!Model: N9915A
!Serial: MY53102697
!GPS Latitude: 
!GPS Longitude: 
!GPS TimeStamp: 0001-01-01 00:00:00Z
!GPS Seconds Since Last Read: 0
!CHECKSUM:1875153279
!Correction: S11(ON U)
!S1P File: Measurement: S11:
# Hz S DB R 50
1000000000	-5.49834577050625	-52.0321222890544
1008000000	-5.52128269178484	-54.2549569396903
1016000000	-5.52751203481208	-56.9058397166929
1024000000	-5.89511509608996	-57.5706475848591
1032000000	-5.84869680623818	-58.4268751412149
1040000000	-5.90705973454351	-59.0319632213152
1048000000	-5.79652389883121	-61.8298588419122
1056000000	-5.85761658419623	-62.1077091077551
1064000000	-5.62876617936053	-64.0472650706335
1072000000	-5.76400710603925	-66.9154872901052
1080000000	-6.07524450282983	-67.1909343006011
1088000000	-5.92816098725062	-67.4108053209229
1096000000	-5.73406807268245	-67.8295061176612
1104000000	-5.85657505182123	-70.4417155133148
1112000000	-6.06860611220811	-71.3350132554761
1120000000	-5.94637190681765	-70.8625738301467
1128000000	-5.99621824783571	-72.1329467514938
1136000000	-6.09036188611052	-72.7662888611682
1144000000	-6.06601521730188	-73.1035679299123
1152000000	-5.98651652644436	-75.1460073753049
1160000000	-6.27923182928467	-77.082935653647
1168000000	-6.35327638603265	-76.7124997632476
1176000000	-6.11214678621726	-77.580898949333
1184000000	-6.17416328996787	-81.1779134149977
1192000000	-6.23359695710597	-81.2167645331038
1200000000	-6.16944554502801	-83.0731314956558
1208000000	-6.25340247614154	-84.4175459667565
1216000000	-6.00626638420277	-85.6173272219408
1224000000	-5.97553457219413	-87.9412784764452
1232000000	-5.96169258233405	-89.8701976915241
1240000000	-5.81352295239369	-91.4643424201424
1248000000	-5.89976081390583	-93.2433391835248
1256000000	-5.65230535170283	-94.6266121644415
1264000000	-5.71581738900511	-96.6845818481044
1272000000	-5.69210084926542	-97.8149273690089
1280000000	-5.48635751497239	-99.5118799300797
1288000000	-5.59455009442848	-101.490347421969
1296000000	-5.48617727400632	-103.084015795767
1304000000	-5.51649642387543	-105.507107328284
1312000000	-5.64238437898525	-106.607217612799
1320000000	-5.49112062101832	-108.445444120651
1328000000	-5.47398897442287	-110.255939928418
1336000000	-5.47394252496432	-112.935164233044
1344000000	-5.67300796203627	-116.1563253252
1352000000	-5.77585204934719	-116.123348627057
1360000000	-5.58922185688477	-118.772688646249
1368000000	-5.67299159349126	-122.431409436612
1376000000	-5.94578441580253	-124.76286487625
1384000000	-5.88159033569607	-125.031502387741
1392000000	-5.88226416239864	-129.30227254053
1400000000	-6.05481944108951	-131.622906191337
1408000000	-6.11807940337585	-132.112021295659
1416000000	-5.82772965561548	-135.903886963202
1424000000	-6.14218792970529	-139.818701492645
1432000000	-6.47049168599871	-141.371384928841
1440000000	-6.3952992757329	-142.547403256414
1448000000	-6.48519743165858	-145.4727713011
1456000000	-6.81476809976009	-146.295103632904
1464000000	-6.66377233795694	-148.024652787736
1472000000	-6.59738430826169	-150.828675945348
1480000000	-6.94666881046537	-154.679245260395
1488000000	-7.39377207244067	-155.587747968006
1496000000	-7.61652070649064	-155.165548841143
1504000000	-7.43595229297906	-157.536696078243
1512000000	-7.93395169789097	-160.490180881222
1520000000	-8.31293098652241	-161.239266028785
1528000000	-8.27445968092793	-162.389105535333
1536000000	-8.64872454317791	-166.841702805959
1544000000	-9.25339609136461	-168.10660198625
1552000000	-9.32486055540942	-168.86577578539
1560000000	-9.7420935185071	-171.730609910126
1568000000	-10.1909146405627	-173.148312018454
1576000000	-10.2485546917728	-174.085398883759
1584000000	-10.3782339786295	-177.543422503877
1592000000	-10.9675818930451	-179.467503947428
1600000000	-11.2730789569801	-179.81504974956
1608000000	-11.3727301778069	-179.890950721729
1616000000	-11.7345755626443	178.845182467522
1624000000	-12.1353264272546	179.646232799945
1632000000	-11.768246608353	-179.591473120915
1640000000	-12.2766816813907	177.386135878278
1648000000	-12.5414594482776	-179.526844840176
1656000000	-13.5723357011024	-178.112344775244
1664000000	-12.9464918470896	-171.311123394069
1672000000	-12.8325287591236	-174.376456342683
1680000000	-13.6759588797132	-173.676865725879
1688000000	-13.862946004005	-168.455258387161
1696000000	-14.0819188489421	-168.388778558521
1704000000	-14.2895051948733	-164.733616939821
1712000000	-14.1741349913407	-160.833649963789
1720000000	-14.3811955856833	-160.544101926148
1728000000	-14.0573435036502	-158.319079393382
1736000000	-14.2708364748698	-162.682224234724
1744000000	-14.2047901636647	-157.766801414281
1752000000	-13.7908188283606	-158.992892838845
1760000000	-13.9530253072652	-163.463793839532
1768000000	-13.8345324230936	-158.884056739269
1776000000	-12.8248223043688	-159.237590079529
1784000000	-12.4525956190577	-166.27880841545
1792000000	-12.6145177045378	-164.673546393596
1800000000	-12.0777259571985	-164.374722873556
1808000000	-11.4602225811009	-167.10350929916
1816000000	-11.3911596541976	-169.038221260743
1824000000	-11.4456756341155	-167.991479412958
1832000000	-10.5069400021147	-165.288717149157
1840000000	-9.91666605000879	-171.174381795815
1848000000	-10.2355272943336	-172.755168126848
1856000000	-10.4003188976407	-168.520308010343
1864000000	-9.33985954587107	-170.428221397374
1872000000	-9.47922000842397	-175.104024575056
1880000000	-9.87935698216558	-174.761016957971
1888000000	-9.30954697035364	-174.3854723855
1896000000	-9.14737415169847	-177.778011624295
1904000000	-9.43040153754552	179.366478880255
1912000000	-9.361224307694	178.491463583787
1920000000	-9.07202171325196	175.987082708858
1928000000	-9.23930960671466	172.566260427619
1936000000	-8.94481346885128	169.765314932761
1944000000	-9.16587033920407	166.965164953872
1952000000	-8.79027296254889	165.201986490652
1960000000	-8.67235780423612	160.848870295149
1968000000	-8.64671006049508	157.571087738566
1976000000	-8.72115847481447	155.187817077782
1984000000	-8.48496464557581	154.418119183063
1992000000	-8.28636542178413	150.775550282436
2000000000	-8.3512111208132	147.710551163301
2008000000	-8.27592946120089	145.917703972665
2016000000	-8.06224505937719	143.657865612876
2024000000	-8.17606661074465	140.146860912701
2032000000	-8.30887461354874	137.881010501811
2040000000	-8.46914971339639	136.780548376252
2048000000	-8.29225865576945	133.314537742176
2056000000	-8.59548029555287	130.23864609148
2064000000	-8.78759154038855	128.571202007496
2072000000	-8.68534696596176	125.432854929605
2080000000	-8.94639798375819	121.055061173785
2088000000	-9.21021679556154	117.514055316426
2096000000	-9.46815603757856	115.006457547744
2104000000	-9.47308846769855	111.520526298147
2112000000	-9.56417110081305	106.086661192764
2120000000	-10.0151886294993	102.500875523259
2128000000	-10.5063543199235	100.060942593128
2136000000	-10.3325230942367	97.5342323037757
2144000000	-10.5521538532824	92.3602952072237
2152000000	-11.0272899022752	90.1707872979773
2160000000	-11.043124488939	88.4863641973013
2168000000	-11.097562770039	86.084555967978
2176000000	-11.4575177675093	79.5568248302338
2184000000	-12.2872981988944	78.2293951301053
2192000000	-13.1641941436652	79.0588396223748
2200000000	-13.1032332535636	79.0287402114534
2208000000	-13.4105991574244	77.2199117179835
2216000000	-14.2837093611934	72.9888505896542
2224000000	-15.0214345558563	72.5411909710225
2232000000	-15.5528274990108	70.0489893009939
2240000000	-17.1032905432927	66.9766486426415
2248000000	-18.5160922269948	68.9790200281543
2256000000	-18.986724513622	71.7506448998174
2264000000	-19.4491910211896	67.3994645517628
2272000000	-20.8642220997802	61.8815046962349
2280000000	-21.6674128995658	61.4687322168746
2288000000	-24.3202941338761	51.362647910462
2296000000	-25.8102965624052	60.5298365975132
2304000000	-26.3407543031267	59.0898446950477
2312000000	-26.1956901737154	67.4728972784567
2320000000	-26.470590937357	63.4062460216111
2328000000	-26.4975699196024	62.5924955150461
2336000000	-30.8013315197403	67.7586094853363
2344000000	-30.847508389909	94.0611839476934
2352000000	-26.1748740107236	119.973254257573
2360000000	-23.8123338821714	107.880359003351
2368000000	-24.4505842745087	107.329553086255
2376000000	-24.2916709368001	119.920779238109
2384000000	-22.8869221631809	136.058084238031
2392000000	-19.9463969011937	132.309169918679
2400000000	-19.8520014799275	132.126650970457
2408000000	-19.1898187651626	134.658685654816
2416000000	-18.3542456351235	134.784296796619
2424000000	-18.2889186241243	136.703172638618
2432000000	-18.1016382362311	138.611066221734
2440000000	-17.4821798248747	142.242817652381
2448000000	-16.9816019525246	138.309570228545
2456000000	-17.0600117527212	137.63530450935
2464000000	-17.367147022364	134.274153669908
2472000000	-17.4388549709056	133.598655152697
2480000000	-17.1620928988896	130.376326419405
2488000000	-17.6357680741788	127.057798176705
2496000000	-16.5806778832816	126.746212744703
2504000000	-16.4946172043161	114.900737088375
2512000000	-16.8071265230263	109.884099352702
2520000000	-16.6028543132523	109.548627332651
2528000000	-15.8191200188012	104.224041276655
2536000000	-15.4289501941704	98.5020266983801
2544000000	-15.2780228263156	96.4269174881602
2552000000	-14.9538626827919	96.0824008572065
2560000000	-13.8885495095581	94.6121969832813
2568000000	-13.538217155626	88.6354575677094
2576000000	-13.9921351712436	85.6987283427926
2584000000	-13.8408824579141	86.5443748386062
2592000000	-13.6866407809317	84.5516870317971
2600000000	-13.6425443448854	82.5397849422678
2608000000	-13.7055275995885	81.8405438905723
2616000000	-13.7413218628714	79.7997580084136
2624000000	-13.8198471139295	74.8468760632382
2632000000	-14.0876824591906	73.6017843230965
2640000000	-14.3596618902861	69.6946550907973
2648000000	-14.5119218991285	65.8629848203078
2656000000	-14.7467385731797	60.0607190801581
2664000000	-15.0890915389935	56.9298721910417
2672000000	-14.4831079588662	52.496769055102
2680000000	-14.4744428758151	42.4776257588316
2688000000	-14.8357257288209	38.6964238136032
2696000000	-14.5961296836394	34.9056871728404
2704000000	-14.1649717683723	30.0269698401697
2712000000	-14.1356810725093	23.4863458871134
2720000000	-14.3935834769499	21.2357245755331
2728000000	-13.6262150679337	19.7868161073148
2736000000	-13.5443344326558	12.0134029717724
2744000000	-14.0296214373179	9.50263958319358
2752000000	-14.1071208430526	8.87872453914887
2760000000	-13.9012471708971	5.4851973889345
2768000000	-14.1962795267522	1.23014217572192
2776000000	-14.52243644648	-1.03436859100451
2784000000	-14.811831099364	-5.26803039617289
2792000000	-14.8957849613832	-9.9464299834744
2800000000	-15.3835424401196	-17.7372341513328
2808000000	-16.0077519376513	-22.1073605029885
2816000000	-16.2257735184297	-26.9272638058619
2824000000	-16.1949613708971	-34.3670332747898
2832000000	-16.3246357093571	-41.5926276387301
2840000000	-16.2966738933262	-51.4299265185119
2848000000	-16.830511029848	-58.1706980308985
2856000000	-16.590513208696	-64.676167102783
2864000000	-16.602322281085	-71.8849328092472
2872000000	-16.8190932207152	-73.8649564239056
2880000000	-16.5194940824236	-78.7435496582876
2888000000	-16.3883906446283	-83.3695579775569
2896000000	-16.5008028564853	-88.0971912380319
2904000000	-17.1361734716552	-90.1187026574953
2912000000	-17.0598706286579	-91.0314421420981
2920000000	-17.1611844043021	-98.0251039808787
2928000000	-18.2805861097944	-105.114078902324
2936000000	-19.1654554137025	-103.957411429456
2944000000	-18.9939179816934	-110.42886685233
2952000000	-20.3547545700166	-119.79717355371
2960000000	-21.0751995250362	-125.49936629387
2968000000	-21.2901820777754	-135.178587837338
2976000000	-22.0111193494422	-150.951029049624
2984000000	-22.4566896859562	-159.161629382602
2992000000	-22.2099504664089	-163.046916257884
3000000000	-21.4607334645886	-172.798377818478
3008000000	-21.7023683364904	-179.950336732041
3016000000	-21.0134073272238	175.701000116227
3024000000	-20.9675174617771	173.807871797599
3032000000	-21.0848305272117	167.000960383659
3040000000	-21.4925092400389	167.042687459556
3048000000	-22.333930210769	172.334153501409
3056000000	-21.9246943710169	165.547719305891
3064000000	-22.9859346052015	166.360209660191
3072000000	-23.1431067870798	160.438075979411
3080000000	-24.95450435803	158.386494020988
3088000000	-26.8476018569849	149.512575309516
3096000000	-29.7139231173184	134.147750531972
3104000000	-33.4270193413768	129.605834218502
3112000000	-37.0039785532028	115.69987963491
3120000000	-32.6665311175975	103.983675169816
3128000000	-30.1514170398409	55.0678129353209
3136000000	-28.8546915146387	40.8684501208648
3144000000	-30.0577532638325	25.6874434279413
3152000000	-28.21806698927	35.1946842933482
3160000000	-28.520073041541	35.1433585794672
3168000000	-26.7610438969942	34.2107894399221
3176000000	-27.7844950989549	33.5325302063402
3184000000	-27.4769094215854	30.9698994534859
3192000000	-27.2900887901289	32.9381740509795
3200000000	-27.6315604244603	13.4449930138706
3208000000	-30.7926582920685	5.07441291180071
3216000000	-35.2451352866301	19.1751274021511
3224000000	-29.8177320077166	6.24109062403094
3232000000	-29.6625123764485	-14.9517318521245
3240000000	-29.2858222079556	-47.0380174212772
3248000000	-29.2141439231932	-45.3529307381513
3256000000	-24.6832259238083	-55.9756854086958
3264000000	-23.6158793232522	-74.7216517594549
3272000000	-25.3133389341229	-78.9708651931482
3280000000	-23.9052204863911	-71.2740072275394
3288000000	-22.4055475746605	-68.9498249838041
3296000000	-21.0936589405851	-72.7884326091646
3304000000	-20.8618405920183	-76.5825051748872
3312000000	-20.534900752656	-73.7883542642737
3320000000	-19.7314608529816	-77.3507438803084
3328000000	-20.1973053426479	-80.1104345343549
3336000000	-20.3845851056801	-76.7054016888462
3344000000	-20.0900721432821	-74.4328633052619
3352000000	-18.7361624263025	-81.2902965931826
3360000000	-19.9614279007492	-90.4177597848079
3368000000	-20.0284772733699	-90.5678136956175
3376000000	-19.6236706282789	-93.365771922621
3384000000	-19.4907417871371	-102.734674843651
3392000000	-19.6832590646295	-105.304139101889
3400000000	-19.2747968262491	-109.990187046725
3408000000	-18.4115180143933	-119.307259757227
3416000000	-18.1613062106924	-123.536006126519
3424000000	-17.5414896868627	-129.718161880435
3432000000	-17.5194816295427	-131.623159533029
3440000000	-16.7011816942538	-134.376475282578
3448000000	-16.2536791888834	-137.830735769555
3456000000	-16.4071342994729	-139.56054151689
3464000000	-15.6593921617319	-140.125483380141
3472000000	-15.4323575061514	-143.542846396843
3480000000	-15.3659941126632	-145.920535550886
3488000000	-15.5977948049699	-145.539212903279
3496000000	-15.3261592414386	-147.020198972114
3504000000	-15.3316974685367	-148.978255260274
3512000000	-15.3727171474663	-149.724092996869
3520000000	-15.6669453050076	-153.430899381406
3528000000	-15.5728871191118	-156.492320011978
3536000000	-16.0574640156579	-160.779958201703
3544000000	-16.0679799488279	-164.425205754035
3552000000	-16.3183544093012	-170.053680190029
3560000000	-16.6900868584906	-172.596534678466
3568000000	-16.4246085381964	-177.358692114118
3576000000	-16.3822038397223	176.806724821294
3584000000	-16.3153191731509	171.061548526336
3592000000	-16.3921569672427	166.628683347775
3600000000	-16.4091143621219	165.970739716656
3608000000	-16.0331021956802	163.547765854293
3616000000	-16.1738061504694	161.348554793437
3624000000	-15.9579829753946	161.032455993381
3632000000	-15.7566019894057	157.837019391109
3640000000	-16.0715527492078	155.980268803062
3648000000	-16.1181682581264	156.503855606692
3656000000	-16.7283505610599	156.148056413352
3664000000	-16.9133104477714	157.628164575645
3672000000	-16.7687952846761	157.231541824488
3680000000	-17.6304462339366	150.353721426313
3688000000	-18.9995833665407	151.727870468765
3696000000	-19.4277980685798	153.490987098806
3704000000	-19.8355476355149	148.609428270356
3712000000	-21.2325929611578	141.041806996728
3720000000	-23.2495640201712	146.517430062314
3728000000	-22.0146623111957	145.385776207273
3736000000	-22.6181234370316	129.80722426405
3744000000	-24.1604904613389	119.697028479273
3752000000	-24.6222647578449	124.517478965994
3760000000	-23.4878846495347	121.81405016179
3768000000	-23.3315180201343	114.164056374543
3776000000	-24.5055831421323	110.641821578253
3784000000	-23.6342322740003	120.915036896411
3792000000	-22.5848427169058	120.378538188166
3800000000	-22.4864330347903	106.989076721129
3808000000	-24.5438874041469	120.601881035747
3816000000	-24.7618301487	128.38455314149
3824000000	-22.4403388170987	134.190255681627
3832000000	-24.4767595345888	133.977668178067
3840000000	-25.1741458436528	149.145644831086
3848000000	-23.5602394309857	157.482490145909
3856000000	-24.3506739452183	155.16212759116
3864000000	-25.1123366795643	172.005380100535
3872000000	-24.1849914015217	-179.49134098256
3880000000	-23.0948270033235	-177.653207474512
3888000000	-25.0303365717219	-172.845268418738
3896000000	-24.3016417737767	-163.927856824724
3904000000	-23.3147453151999	-165.380870091144
3912000000	-24.9422485545514	-166.842142995465
3920000000	-24.9545089872356	-153.779610322231
3928000000	-24.0543812319105	-155.620551285961
3936000000	-23.5468218885757	-161.201661682211
3944000000	-24.5032108920367	-168.663569556101
3952000000	-24.3469471650153	-170.077782256091
3960000000	-24.6732114878663	-170.969478454554
3968000000	-23.5202117826148	-174.617355321572
3976000000	-22.8954596833834	178.539849496156
3984000000	-22.3626390467434	174.681459878887
3992000000	-21.1262296464127	172.959733268396
4000000000	-20.3858866438358	168.022152987266
4008000000	-19.5993200534829	167.494668347819
4016000000	-19.3200701769553	165.67831185781
4024000000	-18.5758434797694	165.245791338146
4032000000	-18.0646485809428	168.045611427578
4040000000	-17.4464147037924	169.146645169523
4048000000	-16.4917476501514	167.465877977438
4056000000	-16.5237013428547	165.180615798562
4064000000	-16.7154222380926	165.114220208338
4072000000	-16.4942284357489	169.648764559244
4080000000	-16.2183302911749	167.525054929368
4088000000	-16.1211098019643	166.939643827599
4096000000	-16.438955328092	166.349664960754
4104000000	-16.2128520469223	164.40788396061
4112000000	-16.7758653033385	159.350548982652
4120000000	-17.3098255072749	161.70171787642
4128000000	-17.0581934342852	159.226274055566
4136000000	-16.7922838914288	154.179977580692
4144000000	-17.1360634245207	147.111878909041
4152000000	-17.5186716284799	145.351087034387
4160000000	-16.7844922759889	142.139378852961
4168000000	-16.4868041344387	134.119788494819
4176000000	-16.9469304373276	132.102360281077
4184000000	-16.2704783291641	134.923896022487
4192000000	-15.2622500325111	129.104738929783
4200000000	-15.2760190131036	123.050897418521
4208000000	-15.5512649174296	123.315257911196
4216000000	-15.2135696334681	124.836713460692
4224000000	-14.7110524150667	122.619919746716
4232000000	-15.178063320729	120.513258675458
4240000000	-15.0959582110521	123.933399583169
4248000000	-14.8172788062548	120.916297934679
4256000000	-15.0823349308427	117.666197998138
4264000000	-16.0588547806601	116.626578104573
4272000000	-16.2565667268968	117.360290995515
4280000000	-16.3039098464747	115.429330523769
4288000000	-16.7009313300304	108.757529443221
4296000000	-17.6393528618319	105.047273764728
4304000000	-17.8435665948758	104.282488296702
4312000000	-17.7997451733766	97.498504246206
