!Keysight Technologies N9915A: A.08.18
!Date: Tuesday, 30 July 2019 13:40:11
!TimeZone: (GMT+08:00) Perth!Model: N9915A
!Serial: MY53102697
!GPS Latitude: 
!GPS Longitude: 
!GPS TimeStamp: 0001-01-01 00:00:00Z
!GPS Seconds Since Last Read: 0
!CHECKSUM:1185453533
!Correction: S11(ON U)
!S1P File: Measurement: S11:
# Hz S DB R 50
1000000000	-7.01772954930906	-64.5149989499678
1008000000	-7.14781148678213	-67.3038427376955
1016000000	-7.35264071841593	-69.9813330660266
1024000000	-7.49517220979445	-69.3158890376807
1032000000	-7.41861710836553	-71.1061599613769
1040000000	-7.49024722413166	-71.7037749663435
1048000000	-7.37080627991703	-74.564292785615
1056000000	-7.31019668222849	-75.4860871652047
1064000000	-7.11605853186457	-78.0510993057077
1072000000	-7.43617505128795	-80.9176305567741
1080000000	-7.62871895632951	-79.5808739450277
1088000000	-7.32722754851478	-80.7281897325515
1096000000	-7.15508472989908	-82.9853173524841
1104000000	-7.40521522744492	-84.9498398696616
1112000000	-7.7694653048827	-85.9930047129331
1120000000	-7.62344771234526	-85.7598082132991
1128000000	-7.65129292763744	-86.7425642846438
1136000000	-7.86651444245285	-86.8226947111677
1144000000	-7.73631628361318	-87.5826698564847
1152000000	-7.82802508273815	-90.1108016775613
1160000000	-8.14868574087086	-90.7365969995517
1168000000	-8.01800701476417	-90.3420973427688
1176000000	-7.72979573437829	-92.7945850779405
1184000000	-8.01453530485709	-96.6798397696723
1192000000	-8.06012534455386	-96.2620396214478
1200000000	-8.00921620290261	-97.1807376481423
1208000000	-7.85739528672141	-97.6298802797591
1216000000	-7.56485688177716	-100.929215770977
1224000000	-7.70780581180693	-101.644427555657
1232000000	-7.46959865604463	-103.56732464385
1240000000	-7.4230985550241	-105.134080540964
1248000000	-7.23819280914038	-105.424151153786
1256000000	-7.0613121273643	-108.683782801841
1264000000	-7.10702394260034	-109.384876181555
1272000000	-6.92743252335233	-110.077364506666
1280000000	-6.66644840511187	-112.735036035502
1288000000	-6.80480243248113	-113.745959693708
1296000000	-6.53837559680261	-115.408962181181
1304000000	-6.57571127903273	-118.108604846517
1312000000	-6.50871912092318	-118.783471591658
1320000000	-6.3332329411539	-122.151510942052
1328000000	-6.34290561373743	-124.479941945809
1336000000	-6.38206980443247	-126.348419532775
1344000000	-6.49347187620099	-129.026212695243
1352000000	-6.28234815775457	-129.304851561428
1360000000	-6.09944749963213	-132.843076270835
1368000000	-6.26567730526455	-137.029469033411
1376000000	-6.48240297778694	-137.964401133495
1384000000	-6.1282789135761	-139.770653489491
1392000000	-6.42519278359139	-143.735785759472
1400000000	-6.42561929436804	-144.450145896358
1408000000	-6.160011289996	-146.565564757516
1416000000	-6.18865985597321	-151.653257352274
1424000000	-6.61212407158101	-153.110641493959
1432000000	-6.5610838319233	-153.745275139032
1440000000	-6.52635831577514	-156.162447640471
1448000000	-6.67287511522923	-158.012435982503
1456000000	-6.62498192783009	-158.722397477858
1464000000	-6.55548888248398	-162.454330421956
1472000000	-6.74363814687659	-165.334018051769
1480000000	-7.09838534600326	-167.106896585633
1488000000	-7.19666072134875	-167.326342818653
1496000000	-7.08261814871708	-168.268567303734
1504000000	-7.27596449096798	-172.322305472318
1512000000	-7.64169914624758	-172.497654822477
1520000000	-7.66818451122394	-173.781366080118
1528000000	-7.74213198855839	-177.639771990379
1536000000	-8.31096110098005	-179.532920753597
1544000000	-8.57005481036758	179.919459924877
1552000000	-8.49347190118372	177.75281536418
1560000000	-8.98255366220138	175.304459085247
1568000000	-9.27430013330066	175.055104461357
1576000000	-9.19549716713289	171.622777129455
1584000000	-9.64882310866333	168.86937056192
1592000000	-9.96978007101305	168.796390617161
1600000000	-10.207008138086	167.672788585207
1608000000	-10.3959143455638	167.226836326164
1616000000	-10.6541009409741	168.533184776242
1624000000	-10.6058482344108	169.139310774853
1632000000	-10.5817303183678	165.698650760862
1640000000	-11.3435181292127	166.473778743098
1648000000	-11.4184277847119	168.199094175984
1656000000	-11.7589657435863	173.352431169172
1664000000	-11.1785570986067	173.193143860118
1672000000	-11.687544819074	170.969846105078
1680000000	-12.4808217570586	174.055378051926
1688000000	-12.362978278523	177.883892829992
1696000000	-12.6299769520274	179.031616960865
1704000000	-12.7758604154827	-179.155575706881
1712000000	-12.6672124232522	-175.692350434785
1720000000	-12.6086202968431	-173.846090091671
1728000000	-12.3106139724984	-176.4385895747
1736000000	-13.1523092390434	-175.268117566065
1744000000	-12.5792973125404	-172.834231018306
1752000000	-12.2880377111704	-172.201690975651
1760000000	-12.3913629477199	-172.244148678725
1768000000	-11.6391824540643	-170.865140693089
1776000000	-10.9013420279917	-173.765089608778
1784000000	-11.2518537172514	-177.054267803571
1792000000	-10.5503154859831	-173.380384044859
1800000000	-10.0731410388112	-175.750239398511
1808000000	-9.89218842678432	-177.60711974151
1816000000	-9.72807547004061	-176.489494456485
1824000000	-9.38261501992471	-173.936360008139
1832000000	-8.39586981793119	-177.140161247112
1840000000	-8.76983437336728	-179.690954117759
1848000000	-8.5717735968641	-177.369947150582
1856000000	-7.89916312492835	-176.266842152733
1864000000	-7.72448722895508	179.393861194441
1872000000	-7.91983316941975	179.5438002116
1880000000	-7.60257146949191	-179.300074752607
1888000000	-7.31988392660406	177.25723085496
1896000000	-7.42292084542371	175.247466120178
1904000000	-7.43515250847032	175.605850016504
1912000000	-7.14781733692182	173.603785138588
1920000000	-7.07510940405705	170.734951171836
1928000000	-6.96735225881853	169.872322909492
1936000000	-6.89097007878153	166.618311069175
1944000000	-6.73859372572215	165.83867673992
1952000000	-6.51922310062766	162.417648974378
1960000000	-6.46957696078125	160.376606525864
1968000000	-6.50577287586027	158.363016967849
1976000000	-6.25325420433492	157.978435128404
1984000000	-5.99874263904424	154.888157041001
1992000000	-6.05604326530095	153.033205897288
2000000000	-5.92992766647786	151.788871979049
2008000000	-5.82105798152075	149.733864308609
2016000000	-5.87495380181132	147.098013858757
2024000000	-5.96769204027625	146.906321746059
2032000000	-5.83613316669648	145.902005975141
2040000000	-5.69081442180871	143.857608949507
2048000000	-5.94794292720876	140.94245935669
2056000000	-5.99696276621825	140.584645202874
2064000000	-5.97272240523855	138.836926515965
2072000000	-6.0348230466785	136.031100337421
2080000000	-6.27543336086882	135.02789489463
2088000000	-6.2985133074198	133.794783974951
2096000000	-6.22704254484874	131.333592200292
2104000000	-6.44375212342801	128.101940044185
2112000000	-6.77039563919687	126.26280462228
2120000000	-6.78715623587657	125.48793103435
2128000000	-6.76069146033847	123.710629617351
2136000000	-6.96226426878806	120.331881277263
2144000000	-7.20893200479304	119.041117960232
2152000000	-7.25384323919372	117.731556016378
2160000000	-7.44631995481808	115.962713073882
2168000000	-7.62649571150042	114.234520167028
2176000000	-8.02852624877179	114.46510983402
2184000000	-8.00486876125422	114.875981321904
2192000000	-7.95664819617548	114.243585790012
2200000000	-8.2205314812986	111.818050354758
2208000000	-8.73011383346485	111.861496855246
2216000000	-9.03099574085994	114.34838088687
2224000000	-9.09124431407364	114.754270216335
2232000000	-9.50190394456799	115.925431467115
2240000000	-9.4315326712369	118.215292633118
2248000000	-9.50084050427512	118.497147252013
2256000000	-9.73237830332907	116.807073380412
2264000000	-10.3238014210793	119.070571405853
2272000000	-10.3344274485061	121.011321546167
2280000000	-10.4932183657102	120.962526761444
2288000000	-10.5951188044255	123.316626660939
2296000000	-10.494527033059	123.500580994899
2304000000	-10.3673505476706	123.692112733686
2312000000	-10.5335697354432	122.347793880167
2320000000	-10.4939992930875	122.380399604803
2328000000	-10.576420404212	123.486954921776
2336000000	-10.0958887758453	125.257361652302
2344000000	-9.71453029302077	124.236171209229
2352000000	-9.42742132205409	122.804228244193
2360000000	-9.53865422012281	122.319890853793
2368000000	-9.19590025912122	123.571214215902
2376000000	-8.96300816946681	124.125572730795
2384000000	-8.44250213258692	125.102830059884
2392000000	-8.2592710088583	123.296595122773
2400000000	-8.07898424449352	123.733591182993
2408000000	-7.98333320131646	123.77040401885
2416000000	-7.83093569229405	125.05662824279
2424000000	-7.59955127651353	124.636617108401
2432000000	-7.47215813574146	125.440567541679
2440000000	-7.28345627220786	124.470133648382
2448000000	-7.35123027756178	123.834096065975
2456000000	-7.27460589273453	123.001493112175
2464000000	-7.31072928217996	122.866227700721
2472000000	-7.21399269095254	121.670337442858
2480000000	-7.15252613601088	120.653392553288
2488000000	-6.99473644264369	119.794174317439
2496000000	-6.92667339604201	116.105803463929
2504000000	-6.99885318069053	115.445596868308
2512000000	-6.76344457363664	114.180570740241
2520000000	-6.52595459680923	110.531411818304
2528000000	-6.64215178260042	109.082434837948
2536000000	-6.59066030573535	108.14747690079
2544000000	-6.28155646463015	107.14107468259
2552000000	-6.02088636895158	104.906127232824
2560000000	-6.00650832261862	102.763169054626
2568000000	-6.0424992256395	101.918545504405
2576000000	-5.87760789726497	102.312530374193
2584000000	-5.73615439567003	100.899661238079
2592000000	-5.71509851218046	99.9950251027803
2600000000	-5.68156530235149	99.316685829867
2608000000	-5.63036932611071	98.1378401980607
2616000000	-5.69243603916158	97.3398131396548
2624000000	-5.71224894799651	96.7495434497536
2632000000	-5.79836375047836	95.7663371983136
2640000000	-5.78372830946084	94.3438317647985
2648000000	-5.86183521205112	93.2543057146753
2656000000	-5.92539215953178	91.9358404734726
2664000000	-5.86274272840014	89.8377114178362
2672000000	-6.05022644380895	87.3917990375821
2680000000	-6.20513061348562	86.3429108980842
2688000000	-6.16928434681733	84.5046079684714
2696000000	-6.22731435884297	81.9154724183856
2704000000	-6.34072284875317	79.9063135257455
2712000000	-6.38771404320038	78.7445195579482
2720000000	-6.29570811837977	76.36951170922
2728000000	-6.4953814227837	74.0433820121521
2736000000	-6.64984164741058	73.7180743442396
2744000000	-6.50825944189428	72.555660834723
2752000000	-6.61313911399776	70.4655858591163
2760000000	-6.81293343775512	69.6993305727285
2768000000	-6.78051338608645	68.8369446027116
2776000000	-6.86439009497312	67.6356998357088
2784000000	-7.10608363362196	66.7082679025931
2792000000	-7.39745620310316	66.4050473841321
2800000000	-7.48691807538039	66.8018350051966
2808000000	-7.74109808181336	65.782884527521
2816000000	-7.93845982606661	64.8267171908956
2824000000	-8.38055941059958	64.332365247824
2832000000	-8.76659872455263	65.0183207710059
2840000000	-8.98457202058509	65.9739311606476
2848000000	-9.29369812645498	64.0690795865457
2856000000	-9.746339695799	65.3759369614122
2864000000	-9.80181893685517	66.3300918286152
2872000000	-10.1423736716428	64.0998227896239
2880000000	-10.6382653715718	65.5375293110586
2888000000	-10.8439887865269	67.0494248016054
2896000000	-10.9118330875363	67.6254371487825
2904000000	-11.0250540392553	67.6929542913538
2912000000	-11.0458347825876	69.0667947972424
2920000000	-10.7983339632364	70.9642855243674
2928000000	-10.6025603249902	68.3400750335714
2936000000	-10.9077236330476	70.6478952745162
2944000000	-10.6455655281967	73.490020117081
2952000000	-10.2394535371116	75.1979411781371
2960000000	-9.94743281178176	75.2023762341767
2968000000	-9.70826392476494	76.0670949010943
2976000000	-9.62933185908686	77.2629121075386
2984000000	-9.34413251104357	77.9992706478833
2992000000	-9.24424673039957	79.6536644165265
3000000000	-8.81015089512698	80.5953585215546
3008000000	-8.63079810183251	80.1782577770729
3016000000	-8.51743160230947	79.9789317817863
3024000000	-8.37236504153438	80.2244021339119
3032000000	-8.38406348313154	79.3553956905847
3040000000	-8.34179284325239	79.4736317611591
3048000000	-8.26187379065233	79.4928878040312
3056000000	-8.1282298195556	77.8928637351842
3064000000	-8.05585936237338	76.6705240969575
3072000000	-8.07714248342043	74.4800661240949
3080000000	-8.0027263100843	73.5575258092918
3088000000	-7.97499746462526	71.6227375609113
3096000000	-7.95161962962822	70.3893839797884
3104000000	-7.735159343683	69.5728059416726
3112000000	-7.43592221921225	67.8482348759031
3120000000	-7.30450007262433	63.9827585037603
3128000000	-7.40629384293379	63.2577208475406
3136000000	-7.32088946066166	62.5226993762595
3144000000	-7.14831288716199	61.872779975248
3152000000	-7.10301372205231	60.8290878475613
3160000000	-6.85567996581629	59.9516774702315
3168000000	-6.95862131256545	59.0942286946799
3176000000	-6.90475225258246	58.1819573943945
3184000000	-6.94472499953239	57.8013848788546
3192000000	-7.02978121413762	57.1336695687912
3200000000	-7.0815372386125	57.6804409148322
3208000000	-6.98939374990696	56.8291197179494
3216000000	-6.94343205137799	54.937927542808
3224000000	-7.2266814040357	53.816286691947
3232000000	-7.31602158497121	52.9118447220757
3240000000	-7.36183436860361	51.9416306460834
3248000000	-7.51116927573474	50.2231568937564
3256000000	-7.65612702165417	49.6092118630312
3264000000	-7.51169782272236	48.9381914052305
3272000000	-7.55609716674462	45.5262135839982
3280000000	-7.7625314505065	43.5824054978401
3288000000	-7.89918626636164	43.2001756012108
3296000000	-7.80228355599151	42.5576414924237
3304000000	-7.73068041179719	40.0994065202021
3312000000	-7.9451670118904	39.1070026409238
3320000000	-7.82011746862549	39.2357988251175
3328000000	-7.74069914676186	37.4676506008758
3336000000	-7.84732794720223	35.625645502311
3344000000	-8.10643600599032	35.7976960241991
3352000000	-7.92335123026243	36.2052103169336
3360000000	-7.9915836027442	34.2555296810375
3368000000	-8.2406084437328	34.1474701066828
3376000000	-8.34224041995022	35.0801687251794
3384000000	-8.28291376531348	34.3994254457889
3392000000	-8.50423507392894	32.9114320756818
3400000000	-8.95922579794875	33.2256392911058
3408000000	-8.98580596649369	34.0438521268099
3416000000	-9.09951493974342	32.9880559248346
3424000000	-9.4288539129967	31.8493204349554
3432000000	-9.90994782790525	32.0420417474904
3440000000	-9.76787862071327	32.90331381494
3448000000	-9.91588619152071	30.7708377819604
3456000000	-10.4866437216058	29.6488231599019
3464000000	-10.6292428176526	31.1706247402368
3472000000	-10.6812474344074	30.2696343827596
3480000000	-10.7667728505287	28.7610861181411
3488000000	-11.0774924477381	28.4339740341172
3496000000	-11.0984061103977	29.5794054470838
3504000000	-11.0089834398469	28.441635771198
3512000000	-11.3523588052462	28.115718239207
3520000000	-11.4280297700941	30.5210692785536
3528000000	-11.0271462812168	31.7047168857944
3536000000	-11.0117606006394	31.1926599551492
3544000000	-11.0983737704164	32.0113396556514
3552000000	-11.092713528707	33.650636477791
3560000000	-11.0508384294991	36.233679649612
3568000000	-10.8977873519115	38.0365702285767
3576000000	-10.6616435888891	39.7249543607847
3584000000	-10.5571300275963	39.3628369417517
3592000000	-10.6171716369735	40.4056216614723
3600000000	-10.5984450730897	42.5404046550776
3608000000	-10.4008749878423	43.0135890087049
3616000000	-10.5335484393808	43.7339178119723
3624000000	-10.3844671137655	43.1644582647771
3632000000	-10.3953432383469	43.9090737175167
3640000000	-10.3153806730255	42.8066835836375
3648000000	-10.3211366321816	40.7054265444822
3656000000	-10.4695447256762	41.8823481648993
3664000000	-10.120214128307	40.3273549070501
3672000000	-9.98607204848571	37.8441353180275
3680000000	-10.1571546019529	36.2944035380104
3688000000	-9.79605824412999	36.5206236726701
3696000000	-9.39566322520821	34.2669010851665
3704000000	-9.39683646358153	30.736300198535
3712000000	-9.49568032362061	30.8594488097401
3720000000	-9.16606559115914	32.2653401482001
3728000000	-8.66154075903508	29.6390612695151
3736000000	-8.81153334735767	28.8380499252214
3744000000	-8.77372929492898	29.4829821016903
3752000000	-8.45648475210337	29.3583377398307
3760000000	-8.43513262160806	28.4688816367133
3768000000	-8.51180227660358	29.0035589620121
3776000000	-8.44862821931239	30.8291978556235
3784000000	-8.17098924854422	29.1053513906158
3792000000	-8.26937115662858	28.0544440426835
3800000000	-8.702332493619	27.7497677147164
3808000000	-8.54111450350998	28.4593854638398
3816000000	-8.62282075706915	27.7532252645607
3824000000	-8.71536959590344	23.9764314553664
3832000000	-9.08812341524653	24.7000093793816
3840000000	-9.04145450213908	24.047238241043
3848000000	-8.95845250270263	21.2905281790247
3856000000	-9.28995732375833	18.177091972144
3864000000	-9.56329642596584	18.2360882520055
3872000000	-9.5423173210073	17.3427855891714
3880000000	-9.28167174367444	14.209708069355
3888000000	-9.57993978155308	13.2386645018657
3896000000	-9.44032795428151	13.081596946421
3904000000	-9.145448090161	10.5382448651289
3912000000	-9.40700099911494	8.65457356972165
3920000000	-9.5874912573149	9.76800888340303
3928000000	-9.38099559574657	10.6665498357981
3936000000	-9.16319590728638	9.20040344994652
3944000000	-9.35489194761772	7.92155123520286
3952000000	-9.49015332699044	9.15963071498724
3960000000	-9.59770210227308	9.85166133320834
3968000000	-9.54779126595444	9.50154665214958
3976000000	-9.94373749770019	9.69380883618122
3984000000	-10.1262193429163	11.4823494371907
3992000000	-9.96556446302624	11.3711479465234
4000000000	-10.3253258239449	10.3331171160191
4008000000	-10.543720062309	10.7882503123864
4016000000	-10.7865075518468	11.1867989496659
4024000000	-11.051192193883	10.4689687494791
4032000000	-11.2380537093436	9.68129806893496
4040000000	-11.5602761657042	9.88009880381583
4048000000	-11.4702000305876	9.27001733963917
4056000000	-11.7210415102437	6.91581504455417
4064000000	-12.0752876050361	5.88394577810285
4072000000	-12.0680699551537	7.44308937051787
4080000000	-12.0633481065767	6.1192502284024
4088000000	-11.9158921844824	5.47769167970646
4096000000	-12.0134298136938	5.03954070207445
4104000000	-11.8822178857135	4.53441669772569
4112000000	-12.0193903854137	4.22073638879776
4120000000	-11.9295997432581	7.5189843737123
4128000000	-11.5936792044978	7.82806997999835
4136000000	-11.5050411553459	8.20143299627775
4144000000	-11.5511837010759	8.41300143731445
4152000000	-11.3700799570295	11.9989706921117
4160000000	-11.2896875343553	12.1301827251246
4168000000	-11.3078431587202	14.224386537028
4176000000	-11.3979667017104	17.0447802050149
4184000000	-10.9496614976666	18.8120773090726
4192000000	-11.0229551790177	18.5827447886925
4200000000	-11.2180831703156	19.1159677109682
4208000000	-11.1839634063008	21.755572718414
4216000000	-11.0392082852001	22.9045882163924
4224000000	-11.0393454476616	21.0581709544182
4232000000	-11.181228732307	21.8151888455543
4240000000	-10.9333517937003	21.847923554737
4248000000	-10.8247922526182	19.9812977399636
4256000000	-10.9402207280065	18.0615527625694
4264000000	-10.8293975125493	18.9758128068681
4272000000	-10.4579384582802	17.7194669402054
4280000000	-10.0743195977938	15.0518667781226
4288000000	-10.1398238895181	12.6678741613005
4296000000	-9.88701688831363	14.520248912222
4304000000	-9.31713585280402	12.1694283140528
4312000000	-9.21679430192867	10.3923244803401
4320000000	-9.04133348762621	11.2001031522524
4328000000	-8.62115389311304	11.3410578866491
4336000000	-8.42816262245914	10.1137257707117
